!Created with skrf (http://scikit-rf.org).
# GHz S RI R 50.0 
!freq ReS11 ImS11 ReS21 ImS21 ReS12 ImS12 ReS22 ImS22
8.0 3.938954065216497e-17 -4.810554086771102e-17 0.9999999999999998 4.538773738543532e-17 1.0 -3.491364414264255e-18 4.302155250860896e-17 -5.501794597514966e-17
8.04 -5.680426057926998e-17 3.1883697266724185e-17 0.9999999999999998 -3.6925866197581865e-17 0.9999999999999998 -1.740949247153259e-17 -1.4193726346217654e-17 -1.3046753066383461e-20
8.08 -4.2484981746795723e-17 8.91493438631998e-18 0.9999999999999998 -2.4569005814865102e-17 1.0000000000000002 1.1952489315339778e-17 -4.2482430138579925e-17 1.0685673544148095e-17
8.12 2.107689947616185e-17 -1.0420528995794283e-17 0.9999999999999998 -7.710901432390637e-17 1.0000000000000002 4.205946235849438e-17 -1.2628844643495067e-16 2.3968666812812512e-17
8.16 -1.413601483826066e-17 2.1059471194303863e-17 1.0000000000000004 -2.374194200004508e-17 0.9999999999999999 -1.1431305407429112e-17 7.741450223407871e-17 -1.0307349346248653e-17
8.2 -4.936908089582654e-17 3.302901061490504e-17 1.0000000000000002 0.0 0.9999999999999998 -3.1596452752658604e-17 1.0670494042129598e-17 -2.099513027281737e-17
8.24 -3.859863500419326e-17 -6.957692236309429e-18 0.9999999999999999 -7.936856688289278e-17 1.0 -9.208507759893638e-18 5.614925227148676e-17 1.394719193225003e-17
8.28 2.7179990151713436e-19 3.591237428215402e-17 1.0 3.0525518139830924e-17 1.0 2.693428071161552e-18 -1.4256229752254757e-17 1.4473669673468463e-17
8.32 -2.76037424231732e-17 2.1492206589805597e-17 1.0000000000000002 3.497831789242192e-18 0.9999999999999999 1.0493495367726576e-17 4.210028543449441e-17 6.2378397969557146e-18
8.36 7.019113031782731e-18 3.262947411216952e-18 1.0000000000000002 3.501662852008017e-18 1.0000000000000002 -7.003325704016034e-18 0.0 0.0
8.4 6.290414197478869e-17 -9.913119959920459e-18 1.0 1.2213359471444e-17 1.0000000000000002 1.3958125110221715e-17 -6.281156299599772e-17 -5.554738727458273e-19
8.44 4.321700209374108e-17 2.796127856568514e-17 0.9999999999999999 -2.6765417799893295e-17 1.0 -1.962797305325508e-17 -1.4618181405449255e-17 -2.4784889806277837e-17
8.48 -5.733518102336133e-17 -4.823989469780835e-18 1.0000000000000002 1.426170577405143e-17 1.0 -7.130852887025715e-18 -2.563983227654676e-17 7.246196057887958e-17
8.52 -2.0873592373560928e-17 2.479868650524654e-17 1.0 7.031349641837444e-18 1.0 8.789187052296805e-18 8.399827018441835e-17 -4.294394888628661e-17
8.56 4.0776709256696096e-17 -3.549570264121625e-17 1.0 0.0 1.0 -3.460153842182441e-17 -3.1737494059236526e-17 -2.701060757291565e-17
8.6 2.7989557791911494e-17 -2.052091440847084e-19 0.9999999999999998 -2.6240210429917027e-18 1.0000000000000002 -3.498694723988937e-18 -2.8015208934922083e-17 -3.293485579904228e-18
8.64 -7.186910844241275e-18 -2.4630564702346515e-17 1.0 1.145396731067833e-17 0.9999999999999999 -1.6740413761760635e-17 -7.058474952119137e-17 -1.722630080989855e-17
8.68 -1.4481562769899538e-17 -1.3391078160832827e-17 0.9999999999999999 0.0 1.0 0.0 -7.077208693589763e-17 -2.5146429408065587e-17
8.72 6.918624501932626e-17 -2.5624584677185116e-18 1.0 -1.3837249003865252e-17 0.9999999999999998 1.3837249003865252e-17 3.9461780237420944e-17 -5.688647109609212e-17
8.76 -7.137972325337754e-18 -2.0821118941347402e-17 1.0 6.960132914937996e-18 1.0 -1.740033228734499e-18 -1.7044653466545472e-17 4.1908996998294444e-17
8.8 3.3139309339240457e-18 2.77965728740083e-17 1.0 3.478269105860554e-18 0.9999999999999999 1.739134552930277e-18 2.0903420318450336e-17 3.2754350061385086e-18
8.84 9.93643714766266e-17 2.4713720756226128e-17 1.0000000000000002 7.028094734423004e-18 0.9999999999999999 0.0 -1.4565677920568095e-18 -4.2168568406538025e-17
8.88 -3.5284922449787404e-19 -2.106175395123324e-17 1.0 3.159263092684986e-17 1.0000000000000002 -3.51029232520554e-18 -1.404116930082216e-17 2.3523281633191604e-19
8.92 1.7204482432460174e-17 2.6689967332636992e-17 0.9999999999999998 -1.346256857633244e-17 0.9999999999999998 0.0 -7.107556000210842e-18 -2.6831069224653725e-17
8.96 -2.7019229888973334e-17 2.866581946355783e-17 0.9999999999999999 4.1763787014398374e-17 0.9999999999999999 0.0 2.2528483081783674e-17 5.506757826206198e-17
9.0 2.4199867747294366e-17 -1.734882175942521e-18 0.9999999999999998 -8.588951756258269e-18 1.0 -1.2964455481144555e-18 6.915274558294703e-17 3.455391524936668e-17
9.04 -1.4544168372509244e-17 4.177582423494565e-17 1.0 6.211053682143993e-17 0.9999999999999998 6.90117075793777e-18 -2.6621217198900342e-17 4.206266843619378e-17
9.08 -5.252719670951676e-17 8.592329335430936e-17 0.9999999999999999 -9.768345824514351e-17 1.0000000000000004 -6.977389874653108e-18 -1.2857472320070181e-17 2.845821321323045e-17
9.12 1.4947750151061902e-17 4.09003706037062e-17 1.0 1.2388397576596247e-16 1.0 -3.4412215490545128e-18 2.0647329294327078e-17 -5.914319774219258e-19
9.16 6.828839899432723e-18 2.7155206169758524e-17 1.0 1.3582313479819626e-17 1.0 8.488945924887266e-19 -1.699673342953599e-17 -1.3558761505117806e-17
9.2 1.9861146466068494e-17 -8.133846336239853e-17 1.0000000000000002 -3.299849263899716e-17 1.0000000000000004 -5.076691175230332e-18 -7.426970580880622e-20 -1.3537843133947554e-17
9.24 -4.8598020884175556e-17 6.936129027384206e-18 0.9999999999999998 4.3525879040833126e-17 0.9999999999999997 -4.2576716569537696e-18 3.471222752166131e-18 4.511769248611233e-22
9.28 -1.3572474061093317e-17 2.903726836375149e-19 0.9999999999999998 2.7144948122186634e-17 1.0 1.6965592576366647e-17 -1.0760100913095018e-17 -2.69271686094585e-17
9.32 2.4628341701790306e-17 -6.927033762571016e-17 1.0000000000000002 -2.7283335967733202e-17 1.0 1.3641667983866601e-17 1.8338506563045584e-17 -5.536317021524927e-17
9.36 -3.448491334050639e-18 -7.683252364911325e-18 1.0 -5.301526464396988e-17 1.0 3.4203396544496693e-18 -2.7375229093197786e-17 -3.3202447936462213e-18
9.4 0.0 0.0 0.9999999999999998 -1.3609061870476202e-17 0.9999999999999998 -6.804530935238101e-18 -1.5350188987353997e-17 5.400096570268536e-17
9.44 -7.039270968035947e-18 -8.581568800734612e-21 1.0000000000000002 -2.771712943664154e-17 1.0000000000000002 -1.7378200202338744e-17 1.1827280345756253e-17 4.2250107205566925e-17
9.48 -1.3908797988333794e-17 -1.3808257363626804e-17 0.9999999999999998 6.063105858241381e-18 0.9999999999999998 7.795421817738918e-18 -6.979534150343644e-18 -1.3833392519803552e-17
9.52 7.842927797801601e-18 4.037817193968778e-17 1.0 3.3798913437287608e-18 1.0 6.7597826874575216e-18 -2.0033595870966958e-17 -5.3581819990752466e-17
9.56 -2.576140031574845e-18 -5.419268276742164e-17 1.0 -1.691943704883893e-18 1.0000000000000002 -1.0151662229303357e-17 -1.333361279452291e-17 -1.373748648361938e-17
9.6 1.018884471850831e-17 1.3606752714231751e-17 0.9999999999999998 -1.4873870377179086e-17 1.0 -1.0199225401494231e-17 -5.4369917100504425e-17 -3.4038940736924455e-17
9.64 -6.964767343158036e-17 -8.375645224648419e-17 1.0000000000000002 -3.9008477826329004e-17 1.0000000000000002 -8.063204913822196e-18 -2.7923714796057235e-17 2.786494622930715e-17
9.68 1.2787648179443681e-17 -5.5022696627187173e-17 0.9999999999999996 -6.849365726123305e-18 0.9999999999999996 1.369873145224661e-17 -1.2159248281879001e-17 4.1309729498803016e-17
9.72 2.3721823142511007e-21 6.901767842684548e-18 1.0 5.1763258820134105e-18 1.0000000000000002 -1.2024173663426985e-17 -1.3799977411897718e-17 1.0357396128655324e-17
9.76 2.78866423306255e-17 -2.6444216913244913e-17 1.0 1.0187036108225702e-17 1.0 3.3956787027419007e-18 -2.6444216913244913e-17 -2.78866423306255e-17
9.8 -1.3497126502584281e-17 -2.7804654691703935e-17 1.0 -8.638304485749018e-18 0.9999999999999998 2.0731930765797642e-17 8.104016865353675e-20 -6.910643588599214e-18
9.84 -2.469297934587428e-17 3.401469389777137e-17 0.9999999999999998 3.4429382174418367e-18 0.9999999999999998 -2.7543505739534694e-17 8.286748194811665e-17 -1.2349964492691935e-17
9.88 -4.047777994091515e-20 4.1084026095724565e-17 1.0 -4.236790191121596e-17 1.0000000000000002 -1.1768861642004432e-17 -6.566489847982019e-18 -6.469593083004342e-21
9.92 1.0681769485882621e-20 4.163038280760878e-17 0.9999999999999996 -7.58887186597035e-19 1.0 1.1274895343727379e-17 1.78029491431377e-21 6.9383971346014634e-18
9.96 -2.736380893158176e-17 -2.4395528787384008e-17 0.9999999999999998 -2.5863661922412087e-17 1.0 0.0 1.3409786535587359e-17 4.15099145724257e-17
10.0 0.0 0.0 1.0000000000000002 1.3825143924448542e-17 1.0000000000000002 6.912571962224271e-18 -2.6290946749251218e-17 -6.281729925986105e-17
10.04 8.392627033554373e-17 -4.041037642401878e-17 0.9999999999999999 3.6446010491643597e-17 1.0000000000000002 3.123943756426594e-17 -1.3884194473007083e-17 -2.070344991670787e-19
10.08 1.816564974856377e-17 -4.159307952552754e-17 0.9999999999999999 -1.745400009021152e-17 0.9999999999999999 -1.3963200072169217e-17 1.4912066283305553e-17 -5.561558373589279e-17
10.12 1.3710430983450579e-17 -6.8175700238756055e-18 1.0 3.8946216389508566e-17 1.0 2.824670639239083e-17 1.0271529597233029e-17 2.25872807098103e-20
10.16 2.725905381619844e-17 2.780383584511592e-17 0.9999999999999998 3.441430603832148e-17 0.9999999999999998 1.2045007113412517e-17 4.134824056119679e-17 -4.7535593840601086e-18
10.2 -4.165704614198902e-17 1.3662686091369241e-17 1.0 -7.364921927483491e-17 0.9999999999999998 -2.33944578873005e-17 -2.7793663690255395e-17 1.3729584878157371e-17
10.24 1.6297106303833595e-17 -8.124955218897911e-17 1.0000000000000002 2.0424098085312497e-17 0.9999999999999998 -6.808032695104165e-18 -3.989866084704938e-17 -3.0274659411005333e-17
10.28 -5.677949449644556e-17 -1.396409525292851e-17 1.0 3.2351087033871113e-17 1.0000000000000002 -7.090649212903257e-18 -1.9607886921922958e-17 -2.828793326093622e-17
10.32 1.1280799709422325e-17 -3.494622525555742e-18 0.9999999999999998 -1.1374261680290501e-16 1.0000000000000002 3.190871120234168e-17 5.206267729509235e-18 -1.746481819549397e-18
10.36 0.0 0.0 1.0 -1.3590343009805413e-17 1.0 1.6987928762256766e-17 -3.391173972233071e-17 -7.1157605158168e-18
10.4 -8.369629802511033e-17 -1.597254128550991e-17 1.0 1.750507869716797e-17 1.0 7.002031478867188e-18 5.700049099482528e-17 -4.0699869988019433e-17
10.44 1.4007945108197162e-17 -3.3830019190856774e-18 1.0000000000000002 2.795989757735263e-17 1.0000000000000002 -2.271741678159901e-17 2.807188285543603e-17 -1.3755978232509512e-17
10.48 -2.1017187292424912e-17 -1.4404522114610386e-17 0.9999999999999997 1.1305920751568677e-16 1.0 -3.7097552466084723e-17 -2.0110116708593122e-17 -8.506652681191461e-17
10.52 -1.3969574410632177e-17 -2.061714046785039e-17 1.0 -7.770337807916728e-18 1.0 2.1584271688657578e-17 -1.3865814057371291e-17 -6.80320658710954e-18
10.56 2.772095297699685e-17 -1.2027318087130824e-17 0.9999999999999996 -2.638632371209327e-17 1.0 1.2976880514144231e-18 5.277316212736968e-21 -1.7302507352192308e-18
10.6 -3.995494708229263e-17 -8.228638464787913e-17 1.0 1.7043976364837573e-17 1.0000000000000002 2.0452771637805086e-17 1.3773809703395535e-17 -1.1772350756500044e-17
10.64 -5.717298068827831e-17 2.7943487580330697e-17 0.9999999999999997 -6.40302520305993e-17 0.9999999999999999 1.6007563007649824e-17 4.345843800363635e-17 -8.498786771584732e-17
10.68 -2.8100682236138005e-17 -1.7509998651321273e-17 0.9999999999999999 2.303182750723286e-17 0.9999999999999998 4.036053582219854e-17 -1.5755192746008294e-17 2.809830346102497e-17
10.72 -4.7392878483254004e-20 -1.0372248436583151e-17 1.0 -3.8031577600804885e-17 1.0000000000000002 2.3337558982312088e-17 6.913252528439325e-17 -3.77336866874941e-18
10.76 2.7601204022944767e-17 -1.381842685520296e-17 0.9999999999999998 5.392252726647851e-18 0.9999999999999998 1.2617871380355972e-17 -3.564968746115182e-21 -6.90208349010925e-18
10.8 -5.557591315829281e-17 1.8412130046833734e-17 1.0000000000000002 -1.2110688699619029e-17 0.9999999999999998 -3.6332066098857086e-17 2.7604205146129687e-17 7.229869640351814e-18
10.84 1.4474918511200744e-17 -2.791867807199376e-17 0.9999999999999998 -1.7578068663797067e-17 1.0000000000000002 2.988271672845501e-17 7.031227465518826e-18 1.0311589504077266e-19
10.88 -4.4627072036702096e-17 -3.49510192000513e-18 1.0 7.799296002297987e-18 1.0000000000000002 4.0079715567364654e-18 -8.931461345560872e-21 1.3865415115196422e-17
10.92 -4.168221633156538e-17 7.361722218078275e-18 1.0 -1.5656048526129966e-17 1.0000000000000002 1.739560947347774e-17 -9.899394445837074e-18 5.576681992230056e-17
10.96 1.3693309354681038e-17 4.4663072422252775e-17 0.9999999999999998 6.4397957321757795e-19 1.0 -6.997911362297681e-17 -2.4069548091790987e-17 2.7452273268740424e-17
11.0 1.2231818137171807e-19 -2.7636921842183075e-17 1.0 1.7273076151364422e-18 1.0000000000000002 -1.64094223437962e-17 1.3879620011777395e-17 -1.3757301830405679e-17
11.04 -5.5330982127906205e-17 -8.38532140710567e-17 0.9999999999999999 3.482900062201755e-18 0.9999999999999999 4.005335071532018e-17 -6.960857388561987e-17 -1.0778215909373496e-17
11.08 -9.839136778270652e-17 7.159070845126397e-18 1.0 -3.0750214272275138e-18 1.0 4.217172243054876e-17 -2.8095845843217994e-17 1.4094512364478617e-17
11.12 1.74400615017628e-17 4.109821006431391e-17 1.0 -4.807871950253333e-17 0.9999999999999998 3.1766296814173805e-17 -1.3826473751009822e-17 -1.3647080250437796e-17
11.16 -3.763989372115181e-19 -3.9398063676901536e-17 1.0 1.0277755741800402e-17 0.9999999999999998 1.7129592903000668e-17 -2.0391859771769707e-17 1.7325974957197982e-17
11.2 4.1527232532242254e-17 -2.0581875146405495e-17 0.9999999999999998 3.4977264821175374e-17 0.9999999999999998 3.0227265894842914e-18 1.3818178694785333e-17 4.8464298590834614e-20
11.24 -6.989320304696061e-17 7.625499117691789e-17 1.0 7.045061742458819e-17 1.0000000000000002 -1.3916171343128532e-17 -3.479042835782133e-18 -1.4197560514451844e-20
11.28 1.3823658942833355e-17 -1.7272810056401445e-18 1.0 1.017328774043319e-16 0.9999999999999998 -8.86922776733626e-18 1.381957995840416e-17 8.29421201461605e-17
11.32 1.3806592874399407e-17 -1.412536281924294e-17 0.9999999999999997 -3.666069184790558e-17 0.9999999999999998 1.571172507767382e-17 -1.412536281924294e-17 -1.3806592874399407e-17
11.36 3.7554583326892563e-17 4.1784096734760055e-17 1.0 6.865734915217743e-18 1.0 -2.5746505932066535e-17 2.7409934065953794e-17 3.8569122169462894e-18
11.4 2.809289832791006e-17 -4.1339877584445786e-17 1.0 8.317173665038039e-17 1.0 -7.97062476232812e-17 2.766241453160736e-17 7.176968794942765e-18
11.44 -1.3889136120355352e-17 -6.901150727085562e-18 1.0000000000000004 7.06593242968849e-17 1.0 4.4216264283940246e-17 0.0 0.0
11.48 2.089195092228842e-17 -1.3806317933903279e-17 0.9999999999999999 1.3022378168462281e-17 1.0000000000000002 5.556214685210573e-17 -4.1334735022586686e-17 -8.351165783640491e-17
11.52 -6.95243993066981e-18 2.0832915501286346e-17 0.9999999999999998 2.517605508251671e-17 0.9999999999999999 -4.308143908516868e-17 5.556216936215924e-17 -3.4530358891479758e-18
11.56 0.0 0.0 0.9999999999999998 4.489341443425847e-17 1.0 -9.60160586225528e-17 -1.0251139041782675e-17 3.22928018432168e-17
11.6 -2.1102612966477527e-17 2.7576976600974813e-17 1.0000000000000002 7.465477048043269e-17 0.9999999999999999 -3.6459306513699684e-17 -4.153341710776078e-17 -1.4292344919383106e-17
11.64 0.0 0.0 1.0 3.384327136090849e-17 1.0 2.5165509473496053e-17 -1.919530550297901e-17 -2.769718036113302e-17
11.68 2.7926707117564356e-17 -2.777403525272748e-17 1.0 -1.1096632269081578e-16 1.0 2.6544885035842204e-17 2.427365487147963e-17 3.4879757922298535e-17
11.72 1.056663040965357e-18 1.380433198688988e-17 1.0000000000000002 -4.917190201878127e-17 0.9999999999999998 -1.5096636584713547e-18 6.89265232412052e-17 5.5318897370951884e-17
11.76 -4.143543263264124e-17 6.982428134705753e-18 0.9999999999999998 4.511770270395745e-17 1.0 1.8133430751829787e-17 3.10227145671136e-21 1.7269934049361702e-18
11.8 5.5411835438688224e-17 -5.4946594914724427e-17 1.0000000000000002 4.3970937093937855e-17 1.0 -9.4839276084964e-18 2.7720456485717982e-17 -3.092199840590636e-17
11.84 -2.586357596255334e-17 -7.007853182710135e-18 1.0 1.3549720578953338e-16 1.0 -1.0356474327862424e-17 -4.8440652958435506e-17 2.7423995874580783e-17
11.88 -1.4410232021363504e-19 2.776241755143079e-17 0.9999999999999998 -3.55705974877707e-17 0.9999999999999998 -1.3013633227233181e-17 6.940604387857697e-18 3.602558005340876e-20
11.92 6.932958101538352e-18 7.021868650574206e-18 1.0000000000000002 1.3954826752112558e-17 1.0000000000000002 -1.6571356768133663e-17 6.915175991731181e-17 9.812834000996718e-17
11.96 1.0283731035881729e-17 5.5492512081269883e-17 0.9999999999999998 -6.58713069500049e-17 1.0000000000000002 1.5167735152961658e-17 6.952103290528987e-18 -8.652652025209448e-18
12.0 -1.801321268446969e-20 -1.0362722245392844e-17 0.9999999999999998 -5.8290312630334745e-18 0.9999999999999998 6.088099319168296e-17 -6.913285020311088e-17 -2.751383790315112e-17
