!Created with skrf (http://scikit-rf.org).
# GHz S RI R 50.0 
!freq ReS11 ImS11 ReS21 ImS21 ReS12 ImS12 ReS22 ImS22
8.0 -3.2541735283077197e-20 6.938016256486771e-18 0.896774528741321 0.44248779034090996 0.8967745287413212 0.44248779034090996 -1.342044821901046e-17 -9.719731106138094e-17
8.04 -1.7439543784694554e-17 6.891604074850207e-18 0.9092794528200451 0.4161861082247691 0.9092794528200451 0.41618610822476904 -1.404456020185508e-17 2.779872923464942e-17
8.08 5.900457576766483e-17 1.4101969716117557e-17 0.9210131700684165 0.3895314371915648 0.9210131700684165 0.38953143719156474 -1.3748722893177115e-17 -4.173340567669057e-17
8.12 -6.976114268474402e-18 1.0420940036189694e-17 0.9319657285152807 0.3625463844434009 0.9319657285152805 0.3625463844434008 3.81790755618593e-17 4.181012875459205e-17
8.16 -3.1533196995518966e-17 6.913530276543551e-17 0.9421278387305743 0.3352538373961683 0.9421278387305745 0.33525383739616854 4.951164723705058e-18 4.85316775848015e-17
8.2 2.2792415653460236e-17 -7.660284103806829e-17 0.9514908817041742 0.30767694426754366 0.9514908817041743 0.3076769442675437 7.001234769241606e-18 -1.7406245449249608e-17
8.24 4.045832366392991e-18 -1.212607515918023e-16 0.9600469161561238 0.27983909444378346 0.9600469161561241 0.27983909444378363 -3.451792359782962e-17 -2.788646893715768e-17
8.28 -2.803469234247707e-17 -2.8044376157960544e-17 0.9677886852720404 0.2517638986419915 0.9677886852720406 0.25176389864199167 2.1022387826051502e-17 4.2062932806134517e-17
8.32 4.8477408808642976e-17 1.8208069276992447e-20 0.9747096228579978 0.22347516888464106 0.9747096228579981 0.22347516888464128 6.925344115520425e-18 2.6011527538560636e-21
8.36 -8.305791168234984e-18 2.0828684846185966e-17 0.9808038589096512 0.19499689830337433 0.9808038589096514 0.19499689830337436 6.879429936644848e-18 2.781706916773769e-17
8.4 2.7710688945549815e-17 1.392817042875264e-17 0.9860662245908918 0.16635324078918678 0.9860662245908914 0.16635324078918667 6.876694067203041e-18 2.7754384519136453e-17
8.44 3.7091089803180836e-20 -4.9138281690417004e-17 0.990492256617802 0.13756849050626901 0.990492256617802 0.13756849050626907 2.4526751028290582e-17 5.617658176252103e-17
8.48 1.4227470469962413e-17 -1.2502719193016292e-16 0.994078201044201 0.10866706128687144 0.9940782010442012 0.1086670612868715 -2.727638784743749e-17 -1.9461769334608538e-16
8.52 6.983078189768451e-18 6.935581684706046e-18 0.9968210164455559 0.07967346592466669 0.9968210164455558 0.0796734659246667 -4.1898469138610704e-17 -4.1613490108236277e-17
8.56 -5.568343904774042e-17 -6.995490245168025e-17 0.9987183764985718 0.05061229538419481 0.9987183764985718 0.05061229538419481 -8.371168398481133e-17 -2.878700852171715e-17
8.6 1.3896020335620734e-17 -1.2147648877301149e-20 0.9997686719542684 0.021508197943992148 0.9997686719542687 0.021508197943992134 5.235302923612377e-18 2.778748530291248e-17
8.64 -1.3766888406313473e-17 -5.582124254397971e-17 0.9999710120028662 -0.007614141708891252 0.9999710120028662 -0.007614141708891255 -6.573101707210811e-18 -1.2552021009996786e-16
8.68 -4.211094640257216e-17 -2.0558150047851978e-17 0.9993252250293274 -0.036730023415237095 0.9993252250293274 -0.03673002341523711 -2.847182279112873e-17 -5.561745050643318e-17
8.72 -2.7567657055421617e-17 -5.551868259078647e-17 0.9978318587589124 -0.0658147524931494 0.9978318587589126 -0.06581475249314944 -1.4013849615676753e-17 5.5403672046803505e-17
8.76 2.078576660023974e-17 -1.379451735576815e-17 0.9954921797926245 -0.09484366068287949 0.9954921797926246 -0.09484366068287955 -2.77336355832094e-17 2.761795488587092e-17
8.8 -1.3921287995286007e-17 1.7411635807585876e-18 0.9923081725329426 -0.12379212706926102 0.9923081725329426 -0.1237921270692611 1.391993065438432e-17 -2.0883104241889557e-17
8.84 -4.202248805969862e-17 -2.805602370088989e-17 0.9882825375007446 -0.15263559896396742 0.9882825375007446 -0.1526355989639674 -4.202248805969862e-17 -2.805602370088989e-17
8.88 -4.18143603084833e-17 -2.0697195948298534e-17 0.9834186890448591 -0.1813496127299189 0.983418689044859 -0.18134961272991876 -1.3966117996953514e-17 -1.385412642045052e-17
8.92 4.17956084282529e-17 2.1470719208443964e-17 0.9777207524461741 -0.2099098145301606 0.9777207524461742 -0.20990981453016072 -7.809184677917369e-20 -1.389119663922015e-17
8.96 4.1715472515221267e-17 4.169465915716018e-17 0.9711935604187828 -0.23829198098359997 0.9711935604187827 -0.23829198098359988 -8.672232525451143e-21 -3.4754221530158936e-17
9.0 -2.60435871637365e-18 2.5919690735050098e-18 0.9638426490110998 -0.2664720397101091 0.9638426490110998 -0.26647203971010913 3.431179478936067e-18 1.3865133868255521e-17
9.04 0.0 0.0 0.9556742529104588 -0.29442608974755735 0.9556742529104587 -0.2944260897475573 -2.809938543481179e-17 1.0786415461178085e-17
9.08 -5.414854466226202e-17 1.1132151784714805e-16 0.9466953001551499 -0.3221304218234448 0.9466953001551499 -0.3221304218234448 -3.024428522624009e-19 -2.7679158035655812e-17
9.12 -3.6957437827819106e-19 -7.637247437662734e-17 0.9369134062583941 -0.3495615384639642 0.9369134062583939 -0.34956153846396415 5.5409227045446e-17 -2.804059023024863e-17
9.16 4.131062684715577e-17 -2.076539749927062e-17 0.9263368677492327 -0.37669617392341537 0.9263368677492329 -0.37669617392341537 4.132530472391481e-17 -1.3872954086365142e-17
9.2 -6.951245750250851e-17 -1.1517215172522427e-17 0.914974655135813 -0.40351131391709455 0.914974655135813 -0.4035113139170945 -5.562342842061849e-17 -1.3729810092540272e-17
9.24 -6.97993186783522e-18 2.0861703481735615e-17 0.902836405297037 -0.4299842151408862 0.902836405297037 -0.429984215140886 -3.3617475248609706e-18 -6.960286818452445e-18
9.28 2.641340274568188e-17 -9.697544608737852e-17 0.8899324133090296 -0.45609242456103893 0.8899324133090296 -0.45609242456103893 -6.264244476136581e-18 5.163778129456948e-17
9.32 -2.6565504419996147e-17 -1.3207856863747509e-16 0.8762736237133478 -0.4818137984577423 0.876273623713348 -0.48181379845774247 -5.544421454579871e-17 -7.438494287405301e-18
9.36 -8.592736975188153e-18 1.72264596586053e-17 0.861871621234356 -0.507126521206358 0.8618716212343561 -0.5071265212063581 1.6396695671011356e-17 4.1308255471575786e-17
9.4 -2.816712090261988e-17 7.023286910283396e-17 0.8467386209536212 -0.5320091237803737 0.8467386209536211 -0.5320091237803737 -1.4153707509615904e-17 1.1240064938785673e-16
9.44 5.5436050725942016e-17 1.3010258992550493e-17 0.8308874579496691 -0.5564405019603957 0.8308874579496691 -0.5564405019603956 -1.3712543317138022e-17 1.739220768833862e-17
9.48 1.0446032290816669e-17 -8.680146521444307e-18 0.8143315764118967 -0.5803999342337275 0.8143315764118969 -0.5803999342337276 2.786261211214139e-17 -2.7784300072578113e-17
9.52 1.3738634787969938e-17 -7.080168227065552e-18 0.7970850182378575 -0.6038670993693513 0.7970850182378577 -0.6038670993693517 5.5038879485111986e-17 -2.1409185347661125e-17
9.56 -1.3764030449733972e-17 -4.147772178132691e-17 0.7791624111236067 -0.6268220936534123 0.7791624111236065 -0.6268220936534123 -1.0401915770953601e-17 2.7625516876333568e-17
9.6 -2.0641340434751186e-17 -2.3435568551541013e-20 0.7605789561571921 -0.6492454477705917 0.7605789561571922 -0.6492454477705915 -3.3112150280746695e-17 -3.7594557884763704e-20
9.64 1.3388882319549735e-17 -5.516088350006828e-17 0.7413504149258333 -0.671118143317028 0.7413504149258332 -0.671118143317028 -3.436931551109545e-17 7.119387865563812e-18
9.68 -1.1080116040475083e-16 4.5765356017330776e-17 0.7214930961477022 -0.6924216289308144 0.7214930961477023 -0.6924216289308146 -2.7699346011465318e-17 1.0359687334405726e-17
9.72 -2.423076980856351e-17 3.4751089326133594e-18 0.7010238418396578 -0.7131378360263645 0.701023841839658 -0.7131378360263647 3.762818468243535e-17 -3.463876043505286e-17
9.76 -6.9184301431230796e-18 2.7505085321495433e-17 0.6799600130326628 -0.7332491941193124 0.6799600130326627 -0.7332491941193124 -6.902558590088078e-17 1.6499083304638507e-16
9.8 0.0 0.0 0.6583194750469987 -0.7527386457289438 0.6583194750469988 -0.7527386457289437 3.166797516597248e-20 -2.072039434426284e-17
9.84 -2.081975093705147e-17 1.6654325415331154e-18 0.6361205823397634 -0.7715896608455299 0.6361205823397633 -0.7715896608455299 1.4106220467830135e-17 -6.933393977887446e-17
9.88 1.3638213265436053e-17 5.58972926667315e-17 0.6133821629375099 -0.7897862509502819 0.6133821629375102 -0.7897862509502818 0.0 0.0
9.92 5.575453421688162e-17 2.211417780201659e-17 0.5901235024672256 -0.8073129825760356 0.5901235024672257 -0.8073129825760358 -2.7841317286238524e-17 -6.715870530584096e-18
9.96 -2.686430387082252e-17 -1.5810910607391005e-20 0.5663643277991965 -0.8241549903971732 0.5663643277991967 -0.8241549903971733 3.466361789783551e-17 2.0401174977278713e-20
10.0 -1.835402646678339e-19 5.502291733431999e-17 0.5421247903156319 -0.8402979898376716 0.5421247903156319 -0.8402979898376716 -1.3618074135079123e-17 -4.131307306690695e-17
10.04 2.069725523458081e-17 4.170869356512845e-17 0.5174254488192319 -0.8557282891865948 0.5174254488192319 -0.8557282891865949 1.384006123584945e-17 1.392384339477394e-17
10.08 8.357092334069992e-17 3.676323877016666e-17 0.49228725209621343 -0.8704328012107304 0.4922872520962133 -0.8704328012107303 9.905232096536645e-20 -4.9119489591796914e-17
10.12 1.8959651464208836e-17 1.3789071579629725e-17 0.46673152114855815 -0.884399054254556 0.46673152114855804 -0.8843990542545559 -1.3788807052154757e-17 -1.3789029812133679e-17
10.16 -1.0175222787201388e-17 -2.771098530530141e-17 0.4407799311105706 -0.8976152028180898 0.44077993111057057 -0.89761520281809 -6.720242639201176e-18 -2.7687270598201503e-17
10.2 3.1156176060249526e-17 2.750154691629772e-17 0.41445449286508274 -0.9100700376036712 0.41445449286508257 -0.9100700376036709 4.787548235356425e-20 1.380463337579662e-17
10.24 6.761948590023026e-17 8.399160170136442e-17 0.38777753437488127 -0.9217529950231452 0.3877775343748812 -0.921752995023145 -1.450443145943704e-17 4.1178688951189723e-17
10.28 2.9841894065300265e-17 2.7797478428615474e-17 0.3607716817452181 -0.932654166157385 0.36077168174521795 -0.9326541661573846 -5.5829346702583e-17 1.4263846473413827e-17
10.32 -3.4645445997864454e-18 1.041530553210051e-17 0.3334598400334329 -0.9427643051605621 0.333459840033433 -0.942764305160562 3.4722380649095624e-17 1.9069081925107212e-17
10.36 1.1698155520613554e-17 5.5055689899393463e-17 0.30586517382200223 -0.9520748371020195 0.3058651738220023 -0.9520748371020193 2.0618853667379895e-17 1.235659195092696e-19
10.4 -3.837206813519544e-17 2.7566501520752558e-17 0.27801108757145676 -0.9605778652391153 0.2780110875714567 -0.9605778652391148 1.9411938424600988e-16 7.060657740998587e-17
10.44 1.3706777595202556e-17 4.179455357382572e-17 0.24992120576984617 -0.9682661777148612 0.24992120576984606 -0.9682661777148609 9.72284626640322e-17 2.829004221508858e-17
10.48 -8.390827568147498e-17 1.0675446986209363e-21 0.22161935289560064 -0.9751332536746633 0.2216193528956009 -0.9751332536746634 -5.593849460608378e-17 2.7970136923624075e-17
10.52 1.0439273232455104e-16 2.765977697374626e-17 0.1931295332107551 -0.9811732687970031 0.1931295332107551 -0.9811732687970031 -1.7369197852797122e-17 1.3940854241728327e-17
10.56 -3.480261146217675e-17 -4.1459534994651e-17 0.1644759104016952 -0.9863811002333392 0.16447591040169515 -0.9863811002333394 -4.1832812158537593e-17 -6.915729032768958e-17
10.6 -3.5379496242204863e-19 4.119804414552355e-17 0.13568278708469453 -0.990752330953064 0.13568278708469456 -0.990752330953064 -6.866340690920592e-18 -5.896582707034144e-20
10.64 5.1507096376139293e-17 5.605526073607699e-17 0.10677458419360034 -0.9942832534898112 0.10677458419360038 -0.994283253489811 -5.588554453872715e-17 -5.256419693557198e-17
10.68 -1.3107024303685721e-17 4.285641480505359e-21 0.077775820267193 -0.9969708730859517 0.07777582026719296 -0.9969708730859519 2.796165184786287e-17 -9.142701825078099e-21
10.72 2.7704293093495832e-17 -2.080429762234499e-17 0.048711090653733226 -0.998812910232604 0.04871109065373326 -0.998812910232604 -6.954237299774922e-18 -4.157104320948869e-17
10.76 -1.382230184311042e-17 -1.2206432512647182e-20 0.01960504665039095 -0.9998078026029984 0.01960504665039089 -0.999807802602998 -1.3839085687815308e-17 1.899345860176418e-17
10.8 -4.191435537939738e-17 4.133252107805152e-17 -0.009517625404798093 -0.9999547063775709 -0.009517625404798072 -0.9999547063775709 2.0472315771910474e-17 4.8706136508848325e-17
10.84 1.5406077625524445e-17 4.204173602571185e-17 -0.03863222507069411 -0.999253496959649 -0.03863222507069401 -0.9992534969596488 -2.821171542819676e-17 3.472610515286905e-17
10.88 8.524939789883595e-18 -4.084216398799229e-17 -0.06771405875276118 -0.9977047690811285 -0.06771405875276115 -0.9977047690811285 2.773088083785918e-17 -1.3999688487450922e-17
10.92 1.4329478111441526e-17 1.2523837750511725e-16 -0.09673846064698988 -0.9953098362980501 -0.0967384606469899 -0.99530983629805 3.475561297129128e-17 -1.4034051090269975e-17
10.96 4.13764434665014e-17 4.165319113186137e-17 -0.12568081366022948 -0.9920707298765058 -0.12568081366022957 -0.9920707298765058 -4.612461089332941e-20 1.383827243306046e-17
11.0 8.330495962180022e-17 -2.7082367302051318e-17 -0.15451657028922666 -0.9879901970698163 -0.15451657028922658 -0.987990197069816 1.3952755194154915e-17 -1.3746969422590285e-17
11.04 -2.0938208829376617e-17 -4.2039970383349774e-17 -0.18322127344061406 -0.9830716987884456 -0.18322127344061415 -0.9830716987884457 4.361405989240918e-20 -2.8004839892286975e-17
11.08 1.7746576616266536e-17 6.947681476258369e-18 -0.2117705771742482 -0.9773194066646205 -0.21177057717424827 -0.9773194066646205 -6.742821832288541e-18 8.40509865683866e-17
11.12 1.393458506713659e-17 1.3743675930506905e-17 -0.24014026735225183 -0.9707381995141574 -0.24014026735225186 -0.9707381995141577 -1.3743675930506905e-17 1.393458506713659e-17
11.16 6.911740658516629e-17 5.4986138830616783e-17 -0.26830628217626745 -0.9633336591984886 -0.26830628217626734 -0.9633336591984887 -2.0680796325013476e-17 3.5046657400840605e-18
11.2 6.984479082298158e-18 -1.3847043315289837e-17 -0.296244732595525 -0.9551120658903884 -0.296244732595525 -0.9551120658903889 1.2191484930647952e-19 -3.467856571287783e-17
11.24 -6.939088366293698e-17 -8.406704548744455e-17 -0.3239319225683658 -0.946080392747446 -0.3239319225683659 -0.9460803927474459 -6.978333534748789e-17 -3.270430704590958e-19
11.28 4.8680109382984815e-17 3.28066896653139e-17 -0.351344369160085 -0.9362462999977631 -0.351344369160085 -0.9362462999977632 2.753583576935872e-17 -6.94813650104352e-17
11.32 -2.8434161177409325e-17 -4.1761804427671104e-17 -0.37845882246001344 -0.925618128442923 -0.3784588224600134 -0.9256181284429232 -1.0098359822901283e-17 4.213810484008925e-17
11.36 -5.5099751484581675e-17 -4.611684052944321e-19 -0.4052522853009773 -0.9142048923837236 -0.4052522853009774 -0.914204892383724 -6.7721768342491015e-18 -1.3832583921807223e-17
11.4 1.3657371180221031e-17 4.197794630351832e-17 -0.4317020327643756 -0.9020162719746831 -0.4317020327643755 -0.902016271974683 9.731151395840111e-17 5.654056697030906e-17
11.44 5.190104390866513e-18 -1.9429780545451104e-20 -0.45778563145435236 -0.8890626050138083 -0.45778563145435247 -0.8890626050138085 -4.273274244267558e-18 1.3856469859431912e-17
11.48 -8.238189807650178e-21 3.49637580183678e-18 -0.4834809585247321 -0.8753548781745645 -0.48348095852473216 -0.8753548781745645 -1.1199936031608405e-16 4.868563915187011e-17
11.52 4.038455218500288e-21 3.4762600175562304e-18 -0.5087662204425305 -0.8609047176875165 -0.5087662204425307 -0.8609047176875164 4.1682812568926764e-17 -2.785854160307185e-17
11.56 -1.3710545163404459e-17 2.4174678293197994e-17 -0.533619971472187 -0.8457243794795225 -0.5336199714721871 -0.8457243794795223 -1.1152261984011706e-20 -3.4471527493231354e-18
11.6 -2.805991545492532e-17 1.3723121278914356e-17 -0.5580211318647876 -0.8298267387788495 -0.5580211318647877 -0.8298267387788496 1.0415075538605088e-17 7.07634615344099e-18
11.64 -3.5027465537341634e-17 -2.770510910175551e-17 -0.5819490057369029 -0.8132252791950276 -0.5819490057369028 -0.8132252791950276 -2.813016966386475e-17 -4.1692910195122575e-17
11.68 2.791712669562042e-17 -1.3964151643636712e-17 -0.6053832986238238 -0.7959340812827013 -0.6053832986238238 -0.7959340812827014 3.664080966581481e-17 -2.0945389221081095e-17
11.72 -2.0704232760679044e-17 7.045448273479557e-18 -0.6283041346923439 -0.7779678105991948 -0.628304134692344 -0.7779678105991947 -1.4955499735115426e-17 2.775778313527909e-17
11.76 2.778783073829788e-17 1.0383849760605218e-17 -0.6506920735984919 -0.7593417052658805 -0.6506920735984919 -0.7593417052658805 1.3891910614833515e-17 3.455937242027276e-18
11.8 4.151388484123996e-17 -1.1135407637084888e-17 -0.6725281269758752 -0.7400715630439537 -0.6725281269758753 -0.7400715630439538 2.774156657800796e-17 -3.450516817754607e-17
11.84 1.3919686553974424e-17 -2.782910429603333e-17 -0.6937937745407002 -0.7201737279355361 -0.6937937745407 -0.720173727935536 -4.174673708762466e-17 -6.161287149309025e-21
11.88 -7.003453921102188e-18 6.937560059462577e-18 -0.7144709797997834 -0.6996650763214768 -0.7144709797997834 -0.6996650763214769 3.60056775301051e-18 -2.4380301000578436e-17
11.92 -1.7642641689605997e-18 -6.962750865062283e-18 -0.7345422053482289 -0.6785630026476253 -0.7345422053482287 -0.6785630026476253 -4.198730641447043e-17 -5.561324851035228e-17
11.96 2.790188308799255e-17 -4.187223635260102e-17 -0.7539904277438032 -0.6568854046717103 -0.7539904277438032 -0.6568854046717103 -8.721391627754732e-18 3.49072180455479e-18
12.0 6.918586152041413e-18 -4.976810285517801e-20 -0.7727991519454029 -0.6346506682833205 -0.7727991519454032 -0.6346506682833207 3.2602206645999946e-18 -2.769922865959324e-17
